code,name,measured_raw,decoded,trust,notes
0x99,MFR_ID,454D4552,"EMER",good,Block read len 4 (Emerson, Artesyn's former owner)
0x9A,MFR_MODEL,3030594C3535372020202020,"00YL557",good,Block len 12 space padded; internal part number not "CSV750BP"
0x9B,MFR_REVISION,3030594C3535362020202020,"00YL556",good,Block len 12 (2000BP note says 2 bytes)
0x9C,MFR_LOCATION,204B31313831," K1181",good,Block len 6
0x9D,MFR_DATE,FF x30,unprogrammed,suspect,len byte 30 but all 0xFF
0x9E,MFR_SERIAL,36374D325039,"67M2P9",good,Block len 6
0x98,PMBUS_REVISION,0x5F,invalid as PMBus rev,suspect,Not a valid Part I/II nibble pair
0x19,CAPABILITY,0xFC,reserved bits set,suspect,2000BP default 0x90
0x20,VOUT_MODE,0x1B,linear exp -5 (1/32 V),unverified,2000BP default 0x17 (exp -9)
0x02,ON_OFF_CONFIG,0x15,"pu=1 cmd=0 cp=1 pol=0(active low) action=1(immediate)",plausible,cmd=0 => OPERATION ignored; CONTROL pin only. 2000BP default 0x1C
0x01,OPERATION,0x00,off/immediate-off,plausible,Consistent with main output off
0x88,READ_VIN,0xF38D,"LINEAR11 exp -2 mant 909 = 227.25 V",confirmed,Matches mains
0x97,READ_PIN,0xC200,"LINEAR11 exp -8 mant 512 = 2.0 W",plausible,Standby-level power with main off
0x8D,READ_TEMPERATURE_1,0x0016,22 degC LINEAR11,plausible,
0x8E,READ_TEMPERATURE_2,0x001E,30 degC LINEAR11,plausible,
0x90,READ_FAN_SPEED_1,0x1B1A,"LINEAR11 exp 3 mant 794 = 6352 rpm",plausible,
0xA7,MFR_POUT_MAX,0x02EE,750 W LINEAR11 exp 0,confirmed,Matches 750 W rating
0x89,READ_IIN,0xFF1D,high byte 0xFF,suspect,Same value as earlier session: deterministic
0x8C,READ_IOUT,0xFF5C,high byte 0xFF,suspect,Same as earlier session
0x96,READ_POUT,0xFF89,high byte 0xFF,suspect,Same as earlier session
0x8B,READ_VOUT,0xFF37,high byte 0xFF,suspect,
0x8F,READ_TEMPERATURE_3,0xFF63,high byte 0xFF,suspect,
0xA6,MFR_IOUT_MAX,0xFF70,high byte 0xFF,suspect,Expected about 61 A; static value so not noise
0xC0,MFR_MAX_TEMP_1,0xFFFB,high byte 0xFF,suspect,
0xC1,MFR_MAX_TEMP_2,0xFFEE,high byte 0xFF,suspect,
0xC2,MFR_MAX_TEMP_3,0xFFD1,high byte 0xFF,suspect,
0x79,STATUS_WORD,0xFF09,high byte 0xFF,suspect,Low byte 0x09 disagrees with STATUS_BYTE 0x1C
0x78,STATUS_BYTE,0x1C,,suspect,Disagrees with STATUS_WORD low byte; no OFF bit (0x40) despite output apparently off
0x7A-0x81,STATUS_VOUT..STATUS_FANS_1_2,0x00 except STATUS_CML 0x80,,unverified,STATUS_CML 0x80 = invalid/unsupported command seen (consistent with the probe poking commands)
0xFB,PRIMARY_FW_REVISION,0x35,ASCII '5'?,unverified,
0xFC,SECONDARY_FW_VERSION,0x30,ASCII '0'?,unverified,
0x1A,QUERY,failed,,measured,QUERY(0) failed. Command is unsupported or the process-call framing is wrong
all,ACK map,all 256 codes ACK,,measured,PSU ACKs every command byte so the fallback map says nothing about support
0x89 0x8B 0x8C 0x8F 0x96 0xA6 0xC0-0xC2 0x78 0x79,run3 single-byte replies,"1 data byte then 0xFF, no PEC",decoded values in earlier rows are artefacts,measured,Main output off. Retest with PSON asserted
0x88 0x97,run3 PEC,"data + CRC-8 PEC (VIN 84F39D, PIN 00C25D)",PEC verified,confirmed,Commands that answer properly append PEC
# --- run 4: main output ON (12.32 V on multimeter, two solid green LEDs, no load); PEC sweep ---
0x01 0x02 0x20 0x7A-0x7E 0x80 0x81 0xFB 0xFC,PEC-valid single byte,OPERATION 00; ON_OFF_CONFIG 15; VOUT_MODE 1B; STATUS_VOUT/IOUT/INPUT/TEMP 00 00 00 00; STATUS_CML 82; MFR_SPECIFIC 00; FANS 00; FW 35/30,real values,confirmed,Valid PEC on the reply
0x88 0x8D 0x8E 0x90 0x97 0xA7,PEC-valid word,VIN 227 V; TEMP1 27 degC; TEMP2 30 degC; FAN 5984 rpm; PIN 5 W; POUT_MAX 750 W,LINEAR11,confirmed,
0x99,PEC-valid block,MFR_ID len 4 EMER,,confirmed,Other MFR_* blocks are longer than the sweep window
0x30,PEC-valid block,len 5: 01 00 00 00 00,COEFFICIENTS-like (m=1 b=0 R=0?),unverified,Not decoded; no READ_* uses DIRECT as far as seen
0x3A 0x3B,PEC-valid,0x3A=D0 (byte); 0x3B=0BE8 word (LINEAR11 2000?),vendor/fan config,unverified,
0x6C 0x6E 0x6F,PEC-valid words,6C=CA80 (=READ_PIN 5 W); 6E=0005; 6F=0000,unknown,unverified,6C mirrors READ_PIN
0x70 0x71 0x72,PEC-valid blocks len 4,70=60 01 FF 02; 71=00 00 12 00; 72=FB D2 9E 9A,unknown,unverified,
0x83 0x84 0xA8 0xB0 0xB9-0xBE 0xD9 0xDA 0xDE 0xDF 0xE1 0xE3 0xFA 0xFD 0xFE,PEC-valid vendor,see raw sweep in probe_run1_analysis.md,unknown,unverified,A8 and B0 read 0x02EE (750)
0x19 0x98 0x78 0x79 0x89 0x8B 0x8C 0x8F 0x96 0xA6 0xC0-0xC2,NOT supported,single stale byte or 0xFF,CAPABILITY/PMBUS_REVISION/STATUS_BYTE/STATUS_WORD/READ_IIN/VOUT/IOUT/TEMP3/POUT/MFR_IOUT_MAX/MFR_MAX_TEMP_*,confirmed,No valid PEC with main output on at 12.32 V; earlier 0x5F/0xFC for PMBUS_REVISION/CAPABILITY were stale bytes
